Freq.	V(n004)
1.00000000000000e-001	(-2.55088189529047e+002dB,1.79999961888065e+002°)
1.00230523807790e-001	(-2.55048189529047e+002dB,1.79999961800208e+002°)
1.00461579027840e-001	(-2.55008189529046e+002dB,1.79999961712149e+002°)
1.00693166885180e-001	(-2.54968189529046e+002dB,1.79999961623886e+002°)
1.00925288607668e-001	(-2.54928189529046e+002dB,1.79999961535420e+002°)
1.01157945425990e-001	(-2.54888189529046e+002dB,1.79999961446750e+002°)
1.01391138573668e-001	(-2.54848189529045e+002dB,1.79999961357875e+002°)
1.01624869287070e-001	(-2.54808189529045e+002dB,1.79999961268796e+002°)
1.01859138805412e-001	(-2.54768189529045e+002dB,1.79999961179512e+002°)
1.02093948370768e-001	(-2.54728189529045e+002dB,1.79999961090021e+002°)
1.02329299228075e-001	(-2.54688189529044e+002dB,1.79999961000324e+002°)
1.02565192625141e-001	(-2.54648189529044e+002dB,1.79999960910421e+002°)
1.02801629812647e-001	(-2.54608189529044e+002dB,1.79999960820310e+002°)
1.03038612044162e-001	(-2.54568189529043e+002dB,1.79999960729991e+002°)
1.03276140576140e-001	(-2.54528189529043e+002dB,1.79999960639465e+002°)
1.03514216667934e-001	(-2.54488189529043e+002dB,1.79999960548729e+002°)
1.03752841581801e-001	(-2.54448189529043e+002dB,1.79999960457785e+002°)
1.03992016582906e-001	(-2.54408189529042e+002dB,1.79999960366631e+002°)
1.04231742939330e-001	(-2.54368189529042e+002dB,1.79999960275266e+002°)
1.04472021922080e-001	(-2.54328189529042e+002dB,1.79999960183691e+002°)
1.04712854805090e-001	(-2.54288189529041e+002dB,1.79999960091905e+002°)
1.04954242865232e-001	(-2.54248189529041e+002dB,1.79999959999907e+002°)
1.05196187382322e-001	(-2.54208189529041e+002dB,1.79999959907698e+002°)
1.05438689639126e-001	(-2.54168189529041e+002dB,1.79999959815275e+002°)
1.05681750921366e-001	(-2.54128189529040e+002dB,1.79999959722640e+002°)
1.05925372517729e-001	(-2.54088189529040e+002dB,1.79999959629791e+002°)
1.06169555719872e-001	(-2.54048189529040e+002dB,1.79999959536728e+002°)
1.06414301822431e-001	(-2.54008189529039e+002dB,1.79999959443451e+002°)
1.06659612123026e-001	(-2.53968189529039e+002dB,1.79999959349958e+002°)
1.06905487922266e-001	(-2.53928189529039e+002dB,1.79999959256250e+002°)
1.07151930523760e-001	(-2.53888189529039e+002dB,1.79999959162326e+002°)
1.07398941234124e-001	(-2.53848189529038e+002dB,1.79999959068186e+002°)
1.07646521362983e-001	(-2.53808189529038e+002dB,1.79999958973828e+002°)
1.07894672222983e-001	(-2.53768189529038e+002dB,1.79999958879253e+002°)
1.08143395129794e-001	(-2.53728189529037e+002dB,1.79999958784460e+002°)
1.08392691402120e-001	(-2.53688189529037e+002dB,1.79999958689448e+002°)
1.08642562361706e-001	(-2.53648189529037e+002dB,1.79999958594218e+002°)
1.08893009333343e-001	(-2.53608189529036e+002dB,1.79999958498767e+002°)
1.09144033644875e-001	(-2.53568189529036e+002dB,1.79999958403097e+002°)
1.09395636627209e-001	(-2.53528189529036e+002dB,1.79999958307206e+002°)
1.09647819614318e-001	(-2.53488189529035e+002dB,1.79999958211095e+002°)
1.09900583943252e-001	(-2.53448189529035e+002dB,1.79999958114761e+002°)
1.10153930954141e-001	(-2.53408189529035e+002dB,1.79999958018206e+002°)
1.10407861990207e-001	(-2.53368189529035e+002dB,1.79999957921428e+002°)
1.10662378397766e-001	(-2.53328189529034e+002dB,1.79999957824427e+002°)
1.10917481526240e-001	(-2.53288189529034e+002dB,1.79999957727202e+002°)
1.11173172728159e-001	(-2.53248189529034e+002dB,1.79999957629753e+002°)
1.11429453359173e-001	(-2.53208189529033e+002dB,1.79999957532079e+002°)
1.11686324778056e-001	(-2.53168189529033e+002dB,1.79999957434181e+002°)
1.11943788346715e-001	(-2.53128189529033e+002dB,1.79999957336056e+002°)
1.12201845430196e-001	(-2.53088189529032e+002dB,1.79999957237706e+002°)
1.12460497396692e-001	(-2.53048189529032e+002dB,1.79999957139129e+002°)
1.12719745617551e-001	(-2.53008189529032e+002dB,1.79999957040324e+002°)
1.12979591467279e-001	(-2.52968189529031e+002dB,1.79999956941292e+002°)
1.13240036323555e-001	(-2.52928189529031e+002dB,1.79999956842031e+002°)
1.13501081567231e-001	(-2.52888189529031e+002dB,1.79999956742542e+002°)
1.13762728582343e-001	(-2.52848189529030e+002dB,1.79999956642823e+002°)
1.14024978756117e-001	(-2.52808189529030e+002dB,1.79999956542875e+002°)
1.14287833478977e-001	(-2.52768189529030e+002dB,1.79999956442696e+002°)
1.14551294144553e-001	(-2.52728189529029e+002dB,1.79999956342286e+002°)
1.14815362149688e-001	(-2.52688189529029e+002dB,1.79999956241644e+002°)
1.15080038894443e-001	(-2.52648189529029e+002dB,1.79999956140771e+002°)
1.15345325782109e-001	(-2.52608189529028e+002dB,1.79999956039665e+002°)
1.15611224219209e-001	(-2.52568189529028e+002dB,1.79999955938326e+002°)
1.15877735615512e-001	(-2.52528189529027e+002dB,1.79999955836753e+002°)
1.16144861384034e-001	(-2.52488189529027e+002dB,1.79999955734946e+002°)
1.16412602941049e-001	(-2.52448189529027e+002dB,1.79999955632905e+002°)
1.16680961706096e-001	(-2.52408189529026e+002dB,1.79999955530628e+002°)
1.16949939101987e-001	(-2.52368189529026e+002dB,1.79999955428116e+002°)
1.17219536554813e-001	(-2.52328189529026e+002dB,1.79999955325367e+002°)
1.17489755493952e-001	(-2.52288189529025e+002dB,1.79999955222381e+002°)
1.17760597352080e-001	(-2.52248189529025e+002dB,1.79999955119158e+002°)
1.18032063565172e-001	(-2.52208189529025e+002dB,1.79999955015697e+002°)
1.18304155572516e-001	(-2.52168189529024e+002dB,1.79999954911997e+002°)
1.18576874816716e-001	(-2.52128189529024e+002dB,1.79999954808059e+002°)
1.18850222743701e-001	(-2.52088189529023e+002dB,1.79999954703881e+002°)
1.19124200802737e-001	(-2.52048189529023e+002dB,1.79999954599462e+002°)
1.19398810446427e-001	(-2.52008189529023e+002dB,1.79999954494803e+002°)
1.19674053130724e-001	(-2.51968189529022e+002dB,1.79999954389903e+002°)
1.19949930314937e-001	(-2.51928189529022e+002dB,1.79999954284761e+002°)
1.20226443461741e-001	(-2.51888189529022e+002dB,1.79999954179376e+002°)
1.20503594037179e-001	(-2.51848189529021e+002dB,1.79999954073749e+002°)
1.20781383510677e-001	(-2.51808189529021e+002dB,1.79999953967878e+002°)
1.21059813355048e-001	(-2.51768189529020e+002dB,1.79999953861763e+002°)
1.21338885046497e-001	(-2.51728189529020e+002dB,1.79999953755403e+002°)
1.21618600064636e-001	(-2.51688189529020e+002dB,1.79999953648799e+002°)
1.21898959892486e-001	(-2.51648189529019e+002dB,1.79999953541948e+002°)
1.22179966016487e-001	(-2.51608189529019e+002dB,1.79999953434851e+002°)
1.22461619926504e-001	(-2.51568189529019e+002dB,1.79999953327507e+002°)
1.22743923115840e-001	(-2.51528189529018e+002dB,1.79999953219916e+002°)
1.23026877081238e-001	(-2.51488189529018e+002dB,1.79999953112077e+002°)
1.23310483322890e-001	(-2.51448189529017e+002dB,1.79999953003989e+002°)
1.23594743344450e-001	(-2.51408189529017e+002dB,1.79999952895652e+002°)
1.23879658653036e-001	(-2.51368189529017e+002dB,1.79999952787065e+002°)
1.24165230759240e-001	(-2.51328189529016e+002dB,1.79999952678228e+002°)
1.24451461177138e-001	(-2.51288189529016e+002dB,1.79999952569140e+002°)
1.24738351424294e-001	(-2.51248189529015e+002dB,1.79999952459801e+002°)
1.25025903021771e-001	(-2.51208189529015e+002dB,1.79999952350209e+002°)
1.25314117494141e-001	(-2.51168189529015e+002dB,1.79999952240365e+002°)
1.25602996369487e-001	(-2.51128189529014e+002dB,1.79999952130268e+002°)
1.25892541179416e-001	(-2.51088189529014e+002dB,1.79999952019917e+002°)
1.26182753459066e-001	(-2.51048189529013e+002dB,1.79999951909311e+002°)
1.26473634747114e-001	(-2.51008189529013e+002dB,1.79999951798451e+002°)
1.26765186585784e-001	(-2.50968189529012e+002dB,1.79999951687335e+002°)
1.27057410520853e-001	(-2.50928189529012e+002dB,1.79999951575963e+002°)
1.27350308101665e-001	(-2.50888189529012e+002dB,1.79999951464334e+002°)
1.27643880881134e-001	(-2.50848189529011e+002dB,1.79999951352447e+002°)
1.27938130415752e-001	(-2.50808189529011e+002dB,1.79999951240303e+002°)
1.28233058265601e-001	(-2.50768189529010e+002dB,1.79999951127901e+002°)
1.28528665994361e-001	(-2.50728189529010e+002dB,1.79999951015239e+002°)
1.28824955169313e-001	(-2.50688189529009e+002dB,1.79999950902317e+002°)
1.29121927361353e-001	(-2.50648189529009e+002dB,1.79999950789135e+002°)
1.29419584144998e-001	(-2.50608189529009e+002dB,1.79999950675693e+002°)
1.29717927098395e-001	(-2.50568189529008e+002dB,1.79999950561988e+002°)
1.30016957803328e-001	(-2.50528189529008e+002dB,1.79999950448022e+002°)
1.30316677845229e-001	(-2.50488189529007e+002dB,1.79999950333793e+002°)
1.30617088813183e-001	(-2.50448189529007e+002dB,1.79999950219300e+002°)
1.30918192299940e-001	(-2.50408189529006e+002dB,1.79999950104544e+002°)
1.31219989901919e-001	(-2.50368189529006e+002dB,1.79999949989523e+002°)
1.31522483219223e-001	(-2.50328189529005e+002dB,1.79999949874237e+002°)
1.31825673855640e-001	(-2.50288189529005e+002dB,1.79999949758685e+002°)
1.32129563418657e-001	(-2.50248189529004e+002dB,1.79999949642867e+002°)
1.32434153519466e-001	(-2.50208189529004e+002dB,1.79999949526782e+002°)
1.32739445772973e-001	(-2.50168189529004e+002dB,1.79999949410429e+002°)
1.33045441797808e-001	(-2.50128189529003e+002dB,1.79999949293808e+002°)
1.33352143216331e-001	(-2.50088189529003e+002dB,1.79999949176918e+002°)
1.33659551654643e-001	(-2.50048189529002e+002dB,1.79999949059759e+002°)
1.33967668742593e-001	(-2.50008189529002e+002dB,1.79999948942330e+002°)
1.34276496113785e-001	(-2.49968189529001e+002dB,1.79999948824629e+002°)
1.34586035405594e-001	(-2.49928189529001e+002dB,1.79999948706658e+002°)
1.34896288259164e-001	(-2.49888189529000e+002dB,1.79999948588415e+002°)
1.35207256319427e-001	(-2.49848189529000e+002dB,1.79999948469899e+002°)
1.35518941235103e-001	(-2.49808189528999e+002dB,1.79999948351110e+002°)
1.35831344658714e-001	(-2.49768189528999e+002dB,1.79999948232047e+002°)
1.36144468246594e-001	(-2.49728189528998e+002dB,1.79999948112709e+002°)
1.36458313658891e-001	(-2.49688189528998e+002dB,1.79999947993097e+002°)
1.36772882559584e-001	(-2.49648189528997e+002dB,1.79999947873208e+002°)
1.37088176616484e-001	(-2.49608189528997e+002dB,1.79999947753044e+002°)
1.37404197501250e-001	(-2.49568189528996e+002dB,1.79999947632602e+002°)
1.37720946889394e-001	(-2.49528189528996e+002dB,1.79999947511883e+002°)
1.38038426460287e-001	(-2.49488189528995e+002dB,1.79999947390885e+002°)
1.38356637897177e-001	(-2.49448189528995e+002dB,1.79999947269608e+002°)
1.38675582887188e-001	(-2.49408189528994e+002dB,1.79999947148052e+002°)
1.38995263121334e-001	(-2.49368189528994e+002dB,1.79999947026216e+002°)
1.39315680294529e-001	(-2.49328189528993e+002dB,1.79999946904099e+002°)
1.39636836105593e-001	(-2.49288189528993e+002dB,1.79999946781700e+002°)
1.39958732257261e-001	(-2.49248189528992e+002dB,1.79999946659019e+002°)
1.40281370456195e-001	(-2.49208189528992e+002dB,1.79999946536056e+002°)
1.40604752412990e-001	(-2.49168189528991e+002dB,1.79999946412809e+002°)
1.40928879842186e-001	(-2.49128189528991e+002dB,1.79999946289277e+002°)
1.41253754462274e-001	(-2.49088189528990e+002dB,1.79999946165461e+002°)
1.41579377995707e-001	(-2.49048189528990e+002dB,1.79999946041360e+002°)
1.41905752168908e-001	(-2.49008189528989e+002dB,1.79999945916972e+002°)
1.42232878712281e-001	(-2.48968189528989e+002dB,1.79999945792298e+002°)
1.42560759360218e-001	(-2.48928189528988e+002dB,1.79999945667336e+002°)
1.42889395851109e-001	(-2.48888189528988e+002dB,1.79999945542087e+002°)
1.43218789927353e-001	(-2.48848189528987e+002dB,1.79999945416548e+002°)
1.43548943335364e-001	(-2.48808189528987e+002dB,1.79999945290720e+002°)
1.43879857825583e-001	(-2.48768189528986e+002dB,1.79999945164603e+002°)
1.44211535152486e-001	(-2.48728189528985e+002dB,1.79999945038194e+002°)
1.44543977074591e-001	(-2.48688189528985e+002dB,1.79999944911494e+002°)
1.44877185354475e-001	(-2.48648189528984e+002dB,1.79999944784502e+002°)
1.45211161758773e-001	(-2.48608189528984e+002dB,1.79999944657217e+002°)
1.45545908058195e-001	(-2.48568189528983e+002dB,1.79999944529639e+002°)
1.45881426027534e-001	(-2.48528189528983e+002dB,1.79999944401766e+002°)
1.46217717445671e-001	(-2.48488189528982e+002dB,1.79999944273599e+002°)
1.46554784095590e-001	(-2.48448189528982e+002dB,1.79999944145136e+002°)
1.46892627764385e-001	(-2.48408189528981e+002dB,1.79999944016378e+002°)
1.47231250243271e-001	(-2.48368189528980e+002dB,1.79999943887322e+002°)
1.47570653327588e-001	(-2.48328189528980e+002dB,1.79999943757969e+002°)
1.47910838816819e-001	(-2.48288189528979e+002dB,1.79999943628318e+002°)
1.48251808514594e-001	(-2.48248189528979e+002dB,1.79999943498368e+002°)
1.48593564228699e-001	(-2.48208189528978e+002dB,1.79999943368118e+002°)
1.48936107771090e-001	(-2.48168189528978e+002dB,1.79999943237568e+002°)
1.49279440957898e-001	(-2.48128189528977e+002dB,1.79999943106717e+002°)
1.49623565609442e-001	(-2.48088189528976e+002dB,1.79999942975564e+002°)
1.49968483550236e-001	(-2.48048189528976e+002dB,1.79999942844109e+002°)
1.50314196609001e-001	(-2.48008189528975e+002dB,1.79999942712352e+002°)
1.50660706618673e-001	(-2.47968189528975e+002dB,1.79999942580290e+002°)
1.51008015416413e-001	(-2.47928189528974e+002dB,1.79999942447924e+002°)
1.51356124843619e-001	(-2.47888189528973e+002dB,1.79999942315252e+002°)
1.51705036745932e-001	(-2.47848189528973e+002dB,1.79999942182275e+002°)
1.52054752973248e-001	(-2.47808189528972e+002dB,1.79999942048992e+002°)
1.52405275379728e-001	(-2.47768189528972e+002dB,1.79999941915401e+002°)
1.52756605823806e-001	(-2.47728189528971e+002dB,1.79999941781502e+002°)
1.53108746168202e-001	(-2.47688189528970e+002dB,1.79999941647295e+002°)
1.53461698279928e-001	(-2.47648189528970e+002dB,1.79999941512778e+002°)
1.53815464030302e-001	(-2.47608189528969e+002dB,1.79999941377951e+002°)
1.54170045294954e-001	(-2.47568189528969e+002dB,1.79999941242813e+002°)
1.54525443953840e-001	(-2.47528189528968e+002dB,1.79999941107364e+002°)
1.54881661891247e-001	(-2.47488189528967e+002dB,1.79999940971602e+002°)
1.55238700995807e-001	(-2.47448189528967e+002dB,1.79999940835528e+002°)
1.55596563160506e-001	(-2.47408189528966e+002dB,1.79999940699139e+002°)
1.55955250282694e-001	(-2.47368189528965e+002dB,1.79999940562437e+002°)
1.56314764264094e-001	(-2.47328189528965e+002dB,1.79999940425419e+002°)
1.56675107010813e-001	(-2.47288189528964e+002dB,1.79999940288085e+002°)
1.57036280433354e-001	(-2.47248189528963e+002dB,1.79999940150435e+002°)
1.57398286446620e-001	(-2.47208189528963e+002dB,1.79999940012468e+002°)
1.57761126969933e-001	(-2.47168189528962e+002dB,1.79999939874182e+002°)
1.58124803927037e-001	(-2.47128189528962e+002dB,1.79999939735578e+002°)
1.58489319246110e-001	(-2.47088189528961e+002dB,1.79999939596654e+002°)
1.58854674859776e-001	(-2.47048189528960e+002dB,1.79999939457410e+002°)
1.59220872705115e-001	(-2.47008189528960e+002dB,1.79999939317845e+002°)
1.59587914723672e-001	(-2.46968189528959e+002dB,1.79999939177958e+002°)
1.59955802861465e-001	(-2.46928189528958e+002dB,1.79999939037749e+002°)
1.60324539069002e-001	(-2.46888189528957e+002dB,1.79999938897216e+002°)
1.60694125301286e-001	(-2.46848189528957e+002dB,1.79999938756360e+002°)
1.61064563517825e-001	(-2.46808189528956e+002dB,1.79999938615179e+002°)
1.61435855682647e-001	(-2.46768189528955e+002dB,1.79999938473672e+002°)
1.61808003764305e-001	(-2.46728189528955e+002dB,1.79999938331839e+002°)
1.62181009735891e-001	(-2.46688189528954e+002dB,1.79999938189679e+002°)
1.62554875575047e-001	(-2.46648189528953e+002dB,1.79999938047192e+002°)
1.62929603263970e-001	(-2.46608189528953e+002dB,1.79999937904376e+002°)
1.63305194789432e-001	(-2.46568189528952e+002dB,1.79999937761231e+002°)
1.63681652142779e-001	(-2.46528189528951e+002dB,1.79999937617756e+002°)
1.64058977319952e-001	(-2.46488189528951e+002dB,1.79999937473950e+002°)
1.64437172321491e-001	(-2.46448189528950e+002dB,1.79999937329812e+002°)
1.64816239152549e-001	(-2.46408189528949e+002dB,1.79999937185343e+002°)
1.65196179822900e-001	(-2.46368189528948e+002dB,1.79999937040540e+002°)
1.65576996346951e-001	(-2.46328189528948e+002dB,1.79999936895403e+002°)
1.65958690743754e-001	(-2.46288189528947e+002dB,1.79999936749932e+002°)
1.66341265037015e-001	(-2.46248189528946e+002dB,1.79999936604126e+002°)
1.66724721255104e-001	(-2.46208189528946e+002dB,1.79999936457983e+002°)
1.67109061431069e-001	(-2.46168189528945e+002dB,1.79999936311504e+002°)
1.67494287602642e-001	(-2.46128189528944e+002dB,1.79999936164686e+002°)
1.67880401812254e-001	(-2.46088189528943e+002dB,1.79999936017531e+002°)
1.68267406107045e-001	(-2.46048189528943e+002dB,1.79999935870036e+002°)
1.68655302538872e-001	(-2.46008189528942e+002dB,1.79999935722201e+002°)
1.69044093164324e-001	(-2.45968189528941e+002dB,1.79999935574026e+002°)
1.69433780044731e-001	(-2.45928189528940e+002dB,1.79999935425508e+002°)
1.69824365246172e-001	(-2.45888189528940e+002dB,1.79999935276649e+002°)
1.70215850839493e-001	(-2.45848189528939e+002dB,1.79999935127446e+002°)
1.70608238900310e-001	(-2.45808189528938e+002dB,1.79999934977899e+002°)
1.71001531509027e-001	(-2.45768189528937e+002dB,1.79999934828008e+002°)
1.71395730750840e-001	(-2.45728189528937e+002dB,1.79999934677771e+002°)
1.71790838715757e-001	(-2.45688189528936e+002dB,1.79999934527188e+002°)
1.72186857498599e-001	(-2.45648189528935e+002dB,1.79999934376257e+002°)
1.72583789199018e-001	(-2.45608189528934e+002dB,1.79999934224979e+002°)
1.72981635921508e-001	(-2.45568189528933e+002dB,1.79999934073352e+002°)
1.73380399775412e-001	(-2.45528189528933e+002dB,1.79999933921375e+002°)
1.73780082874935e-001	(-2.45488189528932e+002dB,1.79999933769048e+002°)
1.74180687339159e-001	(-2.45448189528931e+002dB,1.79999933616370e+002°)
1.74582215292048e-001	(-2.45408189528930e+002dB,1.79999933463340e+002°)
1.74984668862463e-001	(-2.45368189528929e+002dB,1.79999933309957e+002°)
1.75388050184174e-001	(-2.45328189528929e+002dB,1.79999933156221e+002°)
1.75792361395867e-001	(-2.45288189528928e+002dB,1.79999933002130e+002°)
1.76197604641161e-001	(-2.45248189528927e+002dB,1.79999932847684e+002°)
1.76603782068614e-001	(-2.45208189528926e+002dB,1.79999932692882e+002°)
1.77010895831740e-001	(-2.45168189528925e+002dB,1.79999932537723e+002°)
1.77418948089014e-001	(-2.45128189528925e+002dB,1.79999932382206e+002°)
1.77827941003890e-001	(-2.45088189528924e+002dB,1.79999932226331e+002°)
1.78237876744807e-001	(-2.45048189528923e+002dB,1.79999932070097e+002°)
1.78648757485203e-001	(-2.45008189528922e+002dB,1.79999931913502e+002°)
1.79060585403527e-001	(-2.44968189528921e+002dB,1.79999931756547e+002°)
1.79473362683250e-001	(-2.44928189528920e+002dB,1.79999931599229e+002°)
1.79887091512876e-001	(-2.44888189528920e+002dB,1.79999931441549e+002°)
1.80301774085954e-001	(-2.44848189528919e+002dB,1.79999931283506e+002°)
1.80717412601090e-001	(-2.44808189528918e+002dB,1.79999931125098e+002°)
1.81134009261958e-001	(-2.44768189528917e+002dB,1.79999930966325e+002°)
1.81551566277311e-001	(-2.44728189528916e+002dB,1.79999930807186e+002°)
1.81970085860996e-001	(-2.44688189528915e+002dB,1.79999930647680e+002°)
1.82389570231961e-001	(-2.44648189528914e+002dB,1.79999930487806e+002°)
1.82810021614272e-001	(-2.44608189528913e+002dB,1.79999930327564e+002°)
1.83231442237119e-001	(-2.44568189528913e+002dB,1.79999930166952e+002°)
1.83653834334832e-001	(-2.44528189528912e+002dB,1.79999930005971e+002°)
1.84077200146893e-001	(-2.44488189528911e+002dB,1.79999929844618e+002°)
1.84501541917945e-001	(-2.44448189528910e+002dB,1.79999929682893e+002°)
1.84926861897805e-001	(-2.44408189528909e+002dB,1.79999929520795e+002°)
1.85353162341479e-001	(-2.44368189528908e+002dB,1.79999929358324e+002°)
1.85780445509167e-001	(-2.44328189528907e+002dB,1.79999929195478e+002°)
1.86208713666284e-001	(-2.44288189528906e+002dB,1.79999929032257e+002°)
1.86637969083464e-001	(-2.44248189528905e+002dB,1.79999928868659e+002°)
1.87068214036577e-001	(-2.44208189528904e+002dB,1.79999928704684e+002°)
1.87499450806739e-001	(-2.44168189528904e+002dB,1.79999928540332e+002°)
1.87931681680324e-001	(-2.44128189528903e+002dB,1.79999928375600e+002°)
1.88364908948977e-001	(-2.44088189528902e+002dB,1.79999928210489e+002°)
1.88799134909627e-001	(-2.44048189528901e+002dB,1.79999928044997e+002°)
